 frequency       db(v(vout))     180*cph(v(vout))/pi
 1.00000000e+00 -1.06026337e-02 -8.42475443e-05 
 1.12201845e+00 -1.06026337e-02 -9.45272995e-05 
 1.25892541e+00 -1.06026337e-02 -1.06061374e-04 
 1.41253754e+00 -1.06026337e-02 -1.19002819e-04 
 1.58489319e+00 -1.06026337e-02 -1.33523359e-04 
 1.77827941e+00 -1.06026337e-02 -1.49815673e-04 
 1.99526231e+00 -1.06026337e-02 -1.68095950e-04 
 2.23872114e+00 -1.06026338e-02 -1.88606758e-04 
 2.51188643e+00 -1.06026338e-02 -2.11620264e-04 
 2.81838293e+00 -1.06026338e-02 -2.37441841e-04 
 3.16227766e+00 -1.06026338e-02 -2.66414127e-04 
 3.54813389e+00 -1.06026338e-02 -2.98921567e-04 
 3.98107171e+00 -1.06026338e-02 -3.35395515e-04 
 4.46683592e+00 -1.06026339e-02 -3.76319957e-04 
 5.01187234e+00 -1.06026339e-02 -4.22237937e-04 
 5.62341325e+00 -1.06026340e-02 -4.73758757e-04 
 6.30957344e+00 -1.06026341e-02 -5.31566069e-04 
 7.07945784e+00 -1.06026341e-02 -5.96426939e-04 
 7.94328235e+00 -1.06026343e-02 -6.69202032e-04 
 8.91250938e+00 -1.06026344e-02 -7.50857029e-04 
 1.00000000e+01 -1.06026346e-02 -8.42475443e-04 
 1.12201845e+01 -1.06026348e-02 -9.45272995e-04 
 1.25892541e+01 -1.06026351e-02 -1.06061374e-03 
 1.41253754e+01 -1.06026355e-02 -1.19002819e-03 
 1.58489319e+01 -1.06026359e-02 -1.33523359e-03 
 1.77827941e+01 -1.06026365e-02 -1.49815673e-03 
 1.99526231e+01 -1.06026372e-02 -1.68095950e-03 
 2.23872114e+01 -1.06026381e-02 -1.88606758e-03 
 2.51188643e+01 -1.06026392e-02 -2.11620263e-03 
 2.81838293e+01 -1.06026407e-02 -2.37441841e-03 
 3.16227766e+01 -1.06026425e-02 -2.66414127e-03 
 3.54813389e+01 -1.06026447e-02 -2.98921567e-03 
 3.98107171e+01 -1.06026476e-02 -3.35395515e-03 
 4.46683592e+01 -1.06026512e-02 -3.76319957e-03 
 5.01187234e+01 -1.06026557e-02 -4.22237936e-03 
 5.62341325e+01 -1.06026614e-02 -4.73758756e-03 
 6.30957344e+01 -1.06026686e-02 -5.31566067e-03 
 7.07945784e+01 -1.06026776e-02 -5.96426937e-03 
 7.94328235e+01 -1.06026890e-02 -6.69202029e-03 
 8.91250938e+01 -1.06027033e-02 -7.50857025e-03 
 1.00000000e+02 -1.06027214e-02 -8.42475438e-03 
 1.12201845e+02 -1.06027441e-02 -9.45272987e-03 
 1.25892541e+02 -1.06027726e-02 -1.06061373e-02 
 1.41253754e+02 -1.06028086e-02 -1.19002818e-02 
 1.58489319e+02 -1.06028539e-02 -1.33523357e-02 
 1.77827941e+02 -1.06029109e-02 -1.49815670e-02 
 1.99526231e+02 -1.06029827e-02 -1.68095946e-02 
 2.23872114e+02 -1.06030731e-02 -1.88606752e-02 
 2.51188643e+02 -1.06031868e-02 -2.11620255e-02 
 2.81838293e+02 -1.06033300e-02 -2.37441829e-02 
 3.16227766e+02 -1.06035103e-02 -2.66414110e-02 
 3.54813389e+02 -1.06037373e-02 -2.98921543e-02 
 3.98107171e+02 -1.06040231e-02 -3.35395480e-02 
 4.46683592e+02 -1.06043828e-02 -3.76319909e-02 
 5.01187234e+02 -1.06048357e-02 -4.22237868e-02 
 5.62341325e+02 -1.06054059e-02 -4.73758660e-02 
 6.30957344e+02 -1.06061236e-02 -5.31565931e-02 
 7.07945784e+02 -1.06070273e-02 -5.96426744e-02 
 7.94328235e+02 -1.06081649e-02 -6.69201757e-02 
 8.91250938e+02 -1.06095970e-02 -7.50856642e-02 
 1.00000000e+03 -1.06114000e-02 -8.42474896e-02 
 1.12201845e+03 -1.06136699e-02 -9.45272221e-02 
 1.25892541e+03 -1.06165274e-02 -1.06061265e-01 
 1.41253754e+03 -1.06201248e-02 -1.19002665e-01 
 1.58489319e+03 -1.06246537e-02 -1.33523142e-01 
 1.77827941e+03 -1.06303552e-02 -1.49815366e-01 
 1.99526231e+03 -1.06375330e-02 -1.68095515e-01 
 2.23872114e+03 -1.06465692e-02 -1.88606144e-01 
 2.51188643e+03 -1.06579452e-02 -2.11619396e-01 
 2.81838293e+03 -1.06722666e-02 -2.37440615e-01 
 3.16227766e+03 -1.06902962e-02 -2.66412396e-01 
 3.54813389e+03 -1.07129939e-02 -2.98919122e-01 
 3.98107171e+03 -1.07415685e-02 -3.35392061e-01 
 4.46683592e+03 -1.07775485e-02 -3.76315078e-01 
 5.01187234e+03 -1.08228355e-02 -4.22231044e-01 
 5.62341325e+03 -1.08798477e-02 -4.73749022e-01 
 6.30957344e+03 -1.09516207e-02 -5.31552317e-01 
 7.07945784e+03 -1.10419759e-02 -5.96407514e-01 
 7.94328235e+03 -1.11557238e-02 -6.69174595e-01 
 8.91250938e+03 -1.12989195e-02 -7.50818274e-01 
 1.00000000e+04 -1.14791856e-02 -8.42420702e-01 
 1.12201845e+04 -1.17061166e-02 -9.45195673e-01 
 1.25892541e+04 -1.19917889e-02 -1.06050453e+00 
 1.41253754e+04 -1.23514023e-02 -1.18987393e+00 
 1.58489319e+04 -1.28040864e-02 -1.33501571e+00 
 1.77827941e+04 -1.33739219e-02 -1.49784898e+00 
 1.99526231e+04 -1.40911872e-02 -1.68052484e+00 
 2.23872114e+04 -1.49940095e-02 -1.88545368e+00 
 2.51188643e+04 -1.61303199e-02 -2.11533561e+00 
 2.81838293e+04 -1.75604346e-02 -2.37319394e+00 
 3.16227766e+04 -1.93601646e-02 -2.66241210e+00 
 3.54813389e+04 -2.16248449e-02 -2.98677391e+00 
 3.98107171e+04 -2.44742208e-02 -3.35050742e+00 
 4.46683592e+04 -2.80587229e-02 -3.75833194e+00 
 5.01187234e+04 -3.25671399e-02 -4.21550794e+00 
 5.62341325e+04 -3.82362611e-02 -4.72788902e+00 
 6.30957344e+04 -4.53627559e-02 -5.30197462e+00 
 7.07945784e+04 -5.43178963e-02 -5.94496124e+00 
 7.94328235e+04 -6.55655789e-02 -6.66478925e+00 
 8.91250938e+04 -7.96842971e-02 -7.47018050e+00 
 1.00000000e+05 -9.73937319e-02 -8.37066029e+00 
 1.12201845e+05 -1.19586445e-01 -9.37655470e+00 
 1.25892541e+05 -1.47365224e-01 -1.04989511e+01 
 1.41253754e+05 -1.82086010e-01 -1.17496059e+01 
 1.58489319e+05 -2.25406084e-01 -1.31407796e+01 
 1.77827941e+05 -2.79335862e-01 -1.46849748e+01 
 1.99526231e+05 -3.46291391e-01 -1.63945490e+01 
 2.23872114e+05 -4.29142521e-01 -1.82811767e+01 
 2.51188643e+05 -5.31248910e-01 -2.03551352e+01 
 2.81838293e+05 -6.56473220e-01 -2.26244077e+01 
 3.16227766e+05 -8.09157764e-01 -2.50936200e+01 
 3.54813389e+05 -9.94049428e-01 -2.77628690e+01 
 3.98107171e+05 -1.21615901e+00 -3.06265586e+01 
 4.46683592e+05 -1.48054656e+00 -3.36724128e+01 
 5.01187234e+05 -1.79203658e+00 -3.68808906e+01 
 5.62341325e+05 -2.15488318e+00 -4.02252262e+01 
 6.30957344e+05 -2.57242427e+00 -4.36722709e+01 
 7.07945784e+05 -3.04677750e+00 -4.71841792e+01 
 7.94328235e+05 -3.57863316e+00 -5.07208058e+01 
 8.91250938e+05 -4.16718575e+00 -5.42425025e+01 
 1.00000000e+06 -4.81021887e+00 -5.77129000e+01 
 1.12201845e+06 -5.50432573e+00 -6.11012609e+01 
 1.25892541e+06 -6.24522163e+00 -6.43841130e+01 
 1.41253754e+06 -7.02809325e+00 -6.75460439e+01 
 1.58489319e+06 -7.84793251e+00 -7.05797217e+01 
 1.77827941e+06 -8.69981833e+00 -7.34853202e+01 
 1.99526231e+06 -9.57912775e+00 -7.62695844e+01 
 2.23872114e+06 -1.04816746e+01 -7.89447512e+01 
 2.51188643e+06 -1.14037848e+01 -8.15274991e+01 
 2.81838293e+06 -1.23423236e+01 -8.40380355e+01 
 3.16227766e+06 -1.32946890e+01 -8.64993833e+01 
 3.54813389e+06 -1.42587872e+01 -8.89368875e+01 
 3.98107171e+06 -1.52330005e+01 -9.13779397e+01 
 4.46683592e+06 -1.62161569e+01 -9.38519136e+01 
 5.01187234e+06 -1.72075087e+01 -9.63903019e+01 
 5.62341325e+06 -1.82067270e+01 -9.90270563e+01 
 6.30957344e+06 -1.92139207e+01 -1.01799141e+02 
 7.07945784e+06 -2.02296919e+01 -1.04747327e+02 
 7.94328235e+06 -2.12552476e+01 -1.07917244e+02 
 8.91250938e+06 -2.22926019e+01 -1.11360667e+02 
 1.00000000e+07 -2.33449144e+01 -1.15136876e+02 
 1.12201845e+07 -2.44170087e+01 -1.19313577e+02 
 1.25892541e+07 -2.55160500e+01 -1.23966410e+02 
 1.41253754e+07 -2.66521562e+01 -1.29175992e+02 
 1.58489319e+07 -2.78384414e+01 -1.35023392e+02 
 1.77827941e+07 -2.90901525e+01 -1.41589758e+02 
 1.99526231e+07 -3.04237575e+01 -1.48968210e+02 
 2.23872114e+07 -3.18580136e+01 -1.57286522e+02 
 2.51188643e+07 -3.34176631e+01 -1.66725667e+02 
 2.81838293e+07 -3.51375626e+01 -1.77524111e+02 
 3.16227766e+07 -3.70642559e+01 -1.89975083e+02 
 3.54813389e+07 -3.92520935e+01 -2.04430753e+02 
 3.98107171e+07 -4.17482079e+01 -2.21323206e+02 
 4.46683592e+07 -4.45543041e+01 -2.41188105e+02 
 5.01187234e+07 -4.75507325e+01 -2.64544242e+02 
 5.62341325e+07 -5.04160016e+01 -2.91150472e+02 
 6.30957344e+07 -5.27452393e+01 -3.18544935e+02 
 7.07945784e+07 -5.44605691e+01 -3.42438310e+02 
 7.94328235e+07 -5.58668915e+01 -3.59909584e+02 
 8.91250938e+07 -5.72304438e+01 -3.70336863e+02 
 1.00000000e+08 -5.85604454e+01 -3.74025247e+02 
 1.12201845e+08 -5.96347516e+01 -3.71800526e+02 
 1.25892541e+08 -6.01619938e+01 -3.65713634e+02 
 1.41253754e+08 -6.00631966e+01 -3.58851190e+02 
 1.58489319e+08 -5.95468221e+01 -3.53476430e+02 
 1.77827941e+08 -5.88786782e+01 -3.50140011e+02 
 1.99526231e+08 -5.82224224e+01 -3.48455289e+02 
 2.23872114e+08 -5.76448914e+01 -3.47878372e+02 
 2.51188643e+08 -5.71616463e+01 -3.47981276e+02 
 2.81838293e+08 -5.67672097e+01 -3.48476499e+02 
 3.16227766e+08 -5.64493497e+01 -3.49181642e+02 
 3.54813389e+08 -5.61949320e+01 -3.49983734e+02 
 3.98107171e+08 -5.59920404e+01 -3.50813879e+02 
 4.46683592e+08 -5.58305634e+01 -3.51630875e+02 
 5.01187234e+08 -5.57021871e+01 -3.52410902e+02 
 5.62341325e+08 -5.56001854e+01 -3.53141061e+02 
 6.30957344e+08 -5.55191636e+01 -3.53815296e+02 
 7.07945784e+08 -5.54548149e+01 -3.54431806e+02 
 7.94328235e+08 -5.54037106e+01 -3.54991382e+02 
 8.91250938e+08 -5.53631240e+01 -3.55496344e+02 
 1.00000000e+09 -5.53308891e+01 -3.55949845e+02 
 1.12201845e+09 -5.53052853e+01 -3.56355430e+02 
 1.25892541e+09 -5.52849463e+01 -3.56716752e+02 
 1.41253754e+09 -5.52687870e+01 -3.57037393e+02 
 1.58489319e+09 -5.52559454e+01 -3.57320756e+02 
 1.77827941e+09 -5.52457367e+01 -3.57570003e+02 
 1.99526231e+09 -5.52376168e+01 -3.57788020e+02 
 2.23872114e+09 -5.52311528e+01 -3.57977401e+02 
 2.51188643e+09 -5.52260002e+01 -3.58140450e+02 
 2.81838293e+09 -5.52218845e+01 -3.58279184e+02 
 3.16227766e+09 -5.52185864e+01 -3.58395337e+02 
 3.54813389e+09 -5.52159301e+01 -3.58490379e+02 
 3.98107171e+09 -5.52137743e+01 -3.58565518e+02 
 4.46683592e+09 -5.52120040e+01 -3.58621717e+02 
 5.01187234e+09 -5.52105250e+01 -3.58659696e+02 
 5.62341325e+09 -5.52092586e+01 -3.58679943e+02 
 6.30957344e+09 -5.52081372e+01 -3.58682718e+02 
 7.07945784e+09 -5.52071012e+01 -3.58668053e+02 
 7.94328235e+09 -5.52060955e+01 -3.58635754e+02 
 8.91250938e+09 -5.52050665e+01 -3.58585397e+02 
 1.00000000e+10 -5.52039595e+01 -3.58516325e+02 
 1.12201845e+10 -5.52027158e+01 -3.58427638e+02 
 1.25892541e+10 -5.52012694e+01 -3.58318187e+02 
 1.41253754e+10 -5.51995435e+01 -3.58186556e+02 
 1.58489319e+10 -5.51974469e+01 -3.58031054e+02 
 1.77827941e+10 -5.51948688e+01 -3.57849694e+02 
 1.99526231e+10 -5.51916735e+01 -3.57640180e+02 
 2.23872114e+10 -5.51876931e+01 -3.57399887e+02 
 2.51188643e+10 -5.51827193e+01 -3.57125843e+02 
 2.81838293e+10 -5.51764931e+01 -3.56814720e+02 
 3.16227766e+10 -5.51686921e+01 -3.56462819e+02 
 3.54813389e+10 -5.51589153e+01 -3.56066078e+02 
 3.98107171e+10 -5.51466651e+01 -3.55620080e+02 
 4.46683592e+10 -5.51313248e+01 -3.55120093e+02 
 5.01187234e+10 -5.51121339e+01 -3.54561138e+02 
 5.62341325e+10 -5.50881582e+01 -3.53938097e+02 
 6.30957344e+10 -5.50582583e+01 -3.53245888e+02 
 7.07945784e+10 -5.50210547e+01 -3.52479712e+02 
 7.94328235e+10 -5.49748949e+01 -3.51635405e+02 
 8.91250938e+10 -5.49178253e+01 -3.50709919e+02 
 1.00000000e+11 -5.48475743e+01 -3.49701938e+02 
 1.12201845e+11 -5.47615583e+01 -3.48612656e+02 
 1.25892541e+11 -5.46569207e+01 -3.47446691e+02 
 1.41253754e+11 -5.45306214e+01 -3.46213093e+02 
 1.58489319e+11 -5.43795897e+01 -3.44926324e+02 
 1.77827941e+11 -5.42009531e+01 -3.43607048e+02 
 1.99526231e+11 -5.39923405e+01 -3.42282479e+02 
 2.23872114e+11 -5.37522405e+01 -3.40986005e+02 
 2.51188643e+11 -5.34803703e+01 -3.39755843e+02 
 2.81838293e+11 -5.31779848e+01 -3.38632608e+02 
 3.16227766e+11 -5.28480449e+01 -3.37655939e+02 
 3.54813389e+11 -5.24951717e+01 -3.36860630e+02 
 3.98107171e+11 -5.21253543e+01 -3.36272968e+02 
 4.46683592e+11 -5.17454420e+01 -3.35908049e+02 
 5.01187234e+11 -5.13625098e+01 -3.35768686e+02 
 5.62341325e+11 -5.09832248e+01 -3.35846079e+02 
 6.30957344e+11 -5.06133339e+01 -3.36122011e+02 
 7.07945784e+11 -5.02573525e+01 -3.36571956e+02 
 7.94328235e+11 -4.99184720e+01 -3.37168372e+02 
 8.91250938e+11 -4.95986537e+01 -3.37883593e+02 
 1.00000000e+12 -4.92988464e+01 -3.38691925e+02 
